T0374 3019:173 SEGGER J-Link V4.84c Log File (0001ms, 13296ms total)
T0374 3019:173 DLL Compiled: Apr 16 2014 18:53:07 (0001ms, 13296ms total)
T0374 3019:173 Logging started @ 2015-07-31 19:22 (0001ms, 13296ms total)
T0374 3019:201 JLINK_ExecCommand("Device = AT91SAM3N4C", ...)Device "ATSAM3N4C" selected (256 KB flash, 24 KB RAM).  returns 0x00 (0000ms, 13296ms total)
T0374 3019:201 JLINK_GetFirmwareString(...) (0000ms, 13296ms total)
T0374 3019:201 JLINK_GetHardwareVersion()  returns 0x13880 (0000ms, 13296ms total)
T0374 3019:201 JLINK_GetDLLVersion()  returns 48403 (0000ms, 13296ms total)
T0374 3019:206 JLINK_GetFirmwareString(...) (0000ms, 13296ms total)
T0374 3019:206 JLINK_GetHardwareVersion()  returns 0x13880 (0000ms, 13296ms total)
T0374 3019:206 JLINK_GetDLLVersion()  returns 48403 (0000ms, 13296ms total)
T0374 3019:236 JLINK_ExecCommand("ProjectFile = D:\Dropbox\TCC\IMU\TWI - I2C\Testes\TWI_MultiReads_AngleXY\TWI_MultiReads_AngleXY\jlink.config", ...)  returns 0x00 (0001ms, 13297ms total)
T0374 3019:264 JLINK_ExecCommand("Device = AT91SAM3N4C", ...)Device "ATSAM3N4C" selected (256 KB flash, 24 KB RAM).  returns 0x00 (0000ms, 13297ms total)
T0374 3019:264 JLINK_TIF_Select(JLINKARM_TIF_JTAG)  returns 0x00 (0001ms, 13298ms total)
T0374 3019:265 JLINK_GetIdData(...) >0x2F8 JTAG>TotalIRLen = 4, IRPrint = 0x01 >0x30 JTAG> >0x210 JTAG> >0x70 JTAG> >0x40 JTAG> >0x40 JTAG> >0x40 JTAG> >0x48 JTAG> >0x78 JTAG> >0x40 JTAG> >0x30 JTAG> >0x40 JTAG> >0x40 JTAG> >0x30 JTAG> >0x40 JTAG> >0x48 JTAG>Found Cortex-M3 r2p0, Little endian. -- CPU_WriteMem(4 bytes @ 0xE0002000) -- CPU_ReadMem(4 bytes @ 0xE000EDF0) -- CPU_ReadMem(4 bytes @ 0xE0002000)FPUnit: 6 code (BP) slots and 2 literal slots -- CPU_ReadMem(4 bytes @ 0xE000EDFC)
 -- CPU_ReadMem(4 bytes @ 0xE0001000) -- CPU_WriteMem(4 bytes @ 0xE0001000) -- CPU_ReadMem(4 bytes @ 0xE00FF010)TPIU fitted. -- CPU_ReadMem(4 bytes @ 0xE00FF014) -- CPU_ReadMem(4 bytes @ 0xE00FF018) ScanLen=4 NumDevices=1 aId[0]=0x4BA00477 aIrRead[0]=0 aScanLen[0]=0 aScanRead[0]=0 (0017ms, 13315ms total)
T0374 3019:282 JLINK_ConfigJTAG(IRPre = 0, DRPre = 0) (0001ms, 13316ms total)
T0374 3019:283 JLINK_SetSpeed(1000) (0000ms, 13316ms total)
T0374 3019:283 JLINK_Connect() >0x2F8 JTAG>TotalIRLen = 4, IRPrint = 0x01 >0x30 JTAG> >0x210 JTAG> >0x70 JTAG> >0x40 JTAG> >0x40 JTAG> >0x40 JTAG> >0x48 JTAG> >0x78 JTAG> >0x40 JTAG> >0x30 JTAG> >0x40 JTAG> >0x40 JTAG> >0x30 JTAG> >0x40 JTAG> >0x48 JTAG>Found Cortex-M3 r2p0, Little endian. -- CPU_WriteMem(4 bytes @ 0xE0002000) -- CPU_ReadMem(4 bytes @ 0xE000EDF0) -- CPU_ReadMem(4 bytes @ 0xE0002000)FPUnit: 6 code (BP) slots and 2 literal slots -- CPU_ReadMem(4 bytes @ 0xE000EDFC)
 -- CPU_ReadMem(4 bytes @ 0xE0001000) -- CPU_WriteMem(4 bytes @ 0xE0001000) -- CPU_ReadMem(4 bytes @ 0xE00FF010)TPIU fitted. -- CPU_ReadMem(4 bytes @ 0xE00FF014) -- CPU_ReadMem(4 bytes @ 0xE00FF018)  returns 0x00 (0013ms, 13329ms total)
T0374 3019:296 JLINK_GetDebugInfo(0x100) -- Value=0xE00FF003  returns 0x00 (0000ms, 13329ms total)
T0374 3019:296 JLINK_ReadMemU8(0xE00FFFF0, 0x0001 Items, ...) -- CPU is running -- CPU_ReadMem(1 bytes @ 0xE00FFFF0) -- Data:  0D  returns 0x01 (0001ms, 13330ms total)
T0374 3019:297 JLINK_ReadMemU8(0xE00FFFF4, 0x0001 Items, ...) -- CPU is running -- CPU_ReadMem(1 bytes @ 0xE00FFFF4) -- Data:  10  returns 0x01 (0001ms, 13331ms total)
T0374 3019:298 JLINK_ReadMemU8(0xE00FFFF8, 0x0001 Items, ...) -- CPU is running -- CPU_ReadMem(1 bytes @ 0xE00FFFF8) -- Data:  05  returns 0x01 (0001ms, 13332ms total)
T0374 3019:299 JLINK_ReadMemU8(0xE00FFFFC, 0x0001 Items, ...) -- CPU is running -- CPU_ReadMem(1 bytes @ 0xE00FFFFC) -- Data:  B1  returns 0x01 (0001ms, 13333ms total)
T0374 3019:300 JLINK_ReadMemU8(0xE00FFFD0, 0x0001 Items, ...) -- CPU is running -- CPU_ReadMem(1 bytes @ 0xE00FFFD0) -- Data:  00  returns 0x01 (0000ms, 13333ms total)
T0374 3019:301 JLINK_ReadMemU8(0xE00FFFD4, 0x0001 Items, ...) -- CPU is running -- CPU_ReadMem(1 bytes @ 0xE00FFFD4) -- Data:  00  returns 0x01 (0000ms, 13334ms total)
T0374 3019:301 JLINK_ReadMemU8(0xE00FFFD8, 0x0001 Items, ...) -- CPU is running -- CPU_ReadMem(1 bytes @ 0xE00FFFD8) -- Data:  00  returns 0x01 (0001ms, 13335ms total)
T0374 3019:302 JLINK_ReadMemU8(0xE00FFFDC, 0x0001 Items, ...) -- CPU is running -- CPU_ReadMem(1 bytes @ 0xE00FFFDC) -- Data:  00  returns 0x01 (0001ms, 13336ms total)
T0374 3019:303 JLINK_ReadMemU8(0xE00FFFE0, 0x0001 Items, ...) -- CPU is running -- CPU_ReadMem(1 bytes @ 0xE00FFFE0) -- Data:  00  returns 0x01 (0001ms, 13337ms total)
T0374 3019:304 JLINK_ReadMemU8(0xE00FFFE4, 0x0001 Items, ...) -- CPU is running -- CPU_ReadMem(1 bytes @ 0xE00FFFE4) -- Data:  00  returns 0x01 (0001ms, 13338ms total)
T0374 3019:305 JLINK_ReadMemU8(0xE00FFFE8, 0x0001 Items, ...) -- CPU is running -- CPU_ReadMem(1 bytes @ 0xE00FFFE8) -- Data:  00  returns 0x01 (0000ms, 13338ms total)
T0374 3019:305 JLINK_ReadMemU8(0xE00FFFEC, 0x0001 Items, ...) -- CPU is running -- CPU_ReadMem(1 bytes @ 0xE00FFFEC) -- Data:  00  returns 0x01 (0001ms, 13339ms total)
T0374 3019:306 JLINK_ReadMemU32(0xE00FF000, 0x0001 Items, ...) -- CPU is running -- CPU_ReadMem(4 bytes @ 0xE00FF000) -- Data:  03 F0 F0 FF  returns 0x01 (0001ms, 13340ms total)
T0374 3019:307 JLINK_ReadMemU8(0xE000EFF0, 0x0001 Items, ...) -- CPU is running -- CPU_ReadMem(1 bytes @ 0xE000EFF0) -- Data:  0D  returns 0x01 (0001ms, 13341ms total)
T0374 3019:308 JLINK_ReadMemU8(0xE000EFF4, 0x0001 Items, ...) -- CPU is running -- CPU_ReadMem(1 bytes @ 0xE000EFF4) -- Data:  E0  returns 0x01 (0001ms, 13342ms total)
T0374 3019:309 JLINK_ReadMemU8(0xE000EFF8, 0x0001 Items, ...) -- CPU is running -- CPU_ReadMem(1 bytes @ 0xE000EFF8) -- Data:  05  returns 0x01 (0001ms, 13343ms total)
T0374 3019:310 JLINK_ReadMemU8(0xE000EFFC, 0x0001 Items, ...) -- CPU is running -- CPU_ReadMem(1 bytes @ 0xE000EFFC) -- Data:  B1  returns 0x01 (0001ms, 13344ms total)
T0374 3019:311 JLINK_ReadMemU8(0xE000EFD0, 0x0001 Items, ...) -- CPU is running -- CPU_ReadMem(1 bytes @ 0xE000EFD0) -- Data:  04  returns 0x01 (0001ms, 13345ms total)
T0374 3019:312 JLINK_ReadMemU8(0xE000EFD4, 0x0001 Items, ...) -- CPU is running -- CPU_ReadMem(1 bytes @ 0xE000EFD4) -- Data:  00  returns 0x01 (0000ms, 13345ms total)
T0374 3019:312 JLINK_ReadMemU8(0xE000EFD8, 0x0001 Items, ...) -- CPU is running -- CPU_ReadMem(1 bytes @ 0xE000EFD8) -- Data:  00  returns 0x01 (0001ms, 13346ms total)
T0374 3019:313 JLINK_ReadMemU8(0xE000EFDC, 0x0001 Items, ...) -- CPU is running -- CPU_ReadMem(1 bytes @ 0xE000EFDC) -- Data:  00  returns 0x01 (0001ms, 13347ms total)
T0374 3019:314 JLINK_ReadMemU8(0xE000EFE0, 0x0001 Items, ...) -- CPU is running -- CPU_ReadMem(1 bytes @ 0xE000EFE0) -- Data:  00  returns 0x01 (0001ms, 13348ms total)
T0374 3019:315 JLINK_ReadMemU8(0xE000EFE4, 0x0001 Items, ...) -- CPU is running -- CPU_ReadMem(1 bytes @ 0xE000EFE4) -- Data:  B0  returns 0x01 (0001ms, 13349ms total)
T0374 3019:316 JLINK_ReadMemU8(0xE000EFE8, 0x0001 Items, ...) -- CPU is running -- CPU_ReadMem(1 bytes @ 0xE000EFE8) -- Data:  2B  returns 0x01 (0001ms, 13350ms total)
T0374 3019:317 JLINK_ReadMemU8(0xE000EFEC, 0x0001 Items, ...) -- CPU is running -- CPU_ReadMem(1 bytes @ 0xE000EFEC) -- Data:  00  returns 0x01 (0001ms, 13351ms total)
T0374 3019:318 JLINK_ReadMemU32(0xE00FF004, 0x0001 Items, ...) -- CPU is running -- CPU_ReadMem(4 bytes @ 0xE00FF004) -- Data:  03 20 F0 FF  returns 0x01 (0001ms, 13352ms total)
T0374 3019:319 JLINK_ReadMemU8(0xE0001FF0, 0x0001 Items, ...) -- CPU is running -- CPU_ReadMem(1 bytes @ 0xE0001FF0) -- Data:  0D  returns 0x01 (0000ms, 13352ms total)
T0374 3019:319 JLINK_ReadMemU8(0xE0001FF4, 0x0001 Items, ...) -- CPU is running -- CPU_ReadMem(1 bytes @ 0xE0001FF4) -- Data:  E0  returns 0x01 (0001ms, 13353ms total)
T0374 3019:320 JLINK_ReadMemU8(0xE0001FF8, 0x0001 Items, ...) -- CPU is running -- CPU_ReadMem(1 bytes @ 0xE0001FF8) -- Data:  05  returns 0x01 (0001ms, 13354ms total)
T0374 3019:321 JLINK_ReadMemU8(0xE0001FFC, 0x0001 Items, ...) -- CPU is running -- CPU_ReadMem(1 bytes @ 0xE0001FFC) -- Data:  B1  returns 0x01 (0001ms, 13355ms total)
T0374 3019:322 JLINK_ReadMemU8(0xE0001FD0, 0x0001 Items, ...) -- CPU is running -- CPU_ReadMem(1 bytes @ 0xE0001FD0) -- Data:  04  returns 0x01 (0001ms, 13356ms total)
T0374 3019:323 JLINK_ReadMemU8(0xE0001FD4, 0x0001 Items, ...) -- CPU is running -- CPU_ReadMem(1 bytes @ 0xE0001FD4) -- Data:  00  returns 0x01 (0001ms, 13357ms total)
T0374 3019:324 JLINK_ReadMemU8(0xE0001FD8, 0x0001 Items, ...) -- CPU is running -- CPU_ReadMem(1 bytes @ 0xE0001FD8) -- Data:  00  returns 0x01 (0000ms, 13357ms total)
T0374 3019:324 JLINK_ReadMemU8(0xE0001FDC, 0x0001 Items, ...) -- CPU is running -- CPU_ReadMem(1 bytes @ 0xE0001FDC) -- Data:  00  returns 0x01 (0001ms, 13358ms total)
T0374 3019:325 JLINK_ReadMemU8(0xE0001FE0, 0x0001 Items, ...) -- CPU is running -- CPU_ReadMem(1 bytes @ 0xE0001FE0) -- Data:  02  returns 0x01 (0001ms, 13359ms total)
T0374 3019:326 JLINK_ReadMemU8(0xE0001FE4, 0x0001 Items, ...) -- CPU is running -- CPU_ReadMem(1 bytes @ 0xE0001FE4) -- Data:  B0  returns 0x01 (0001ms, 13360ms total)
T0374 3019:327 JLINK_ReadMemU8(0xE0001FE8, 0x0001 Items, ...) -- CPU is running -- CPU_ReadMem(1 bytes @ 0xE0001FE8) -- Data:  2B  returns 0x01 (0001ms, 13361ms total)
T0374 3019:328 JLINK_ReadMemU8(0xE0001FEC, 0x0001 Items, ...) -- CPU is running -- CPU_ReadMem(1 bytes @ 0xE0001FEC) -- Data:  00  returns 0x01 (0001ms, 13362ms total)
T0374 3019:329 JLINK_ReadMemU32(0xE00FF008, 0x0001 Items, ...) -- CPU is running -- CPU_ReadMem(4 bytes @ 0xE00FF008) -- Data:  03 30 F0 FF  returns 0x01 (0000ms, 13362ms total)
T0374 3019:329 JLINK_ReadMemU8(0xE0002FF0, 0x0001 Items, ...) -- CPU is running -- CPU_ReadMem(1 bytes @ 0xE0002FF0) -- Data:  0D  returns 0x01 (0001ms, 13363ms total)
T0374 3019:330 JLINK_ReadMemU8(0xE0002FF4, 0x0001 Items, ...) -- CPU is running -- CPU_ReadMem(1 bytes @ 0xE0002FF4) -- Data:  E0  returns 0x01 (0001ms, 13364ms total)
T0374 3019:331 JLINK_ReadMemU8(0xE0002FF8, 0x0001 Items, ...) -- CPU is running -- CPU_ReadMem(1 bytes @ 0xE0002FF8) -- Data:  05  returns 0x01 (0001ms, 13365ms total)
T0374 3019:332 JLINK_ReadMemU8(0xE0002FFC, 0x0001 Items, ...) -- CPU is running -- CPU_ReadMem(1 bytes @ 0xE0002FFC) -- Data:  B1  returns 0x01 (0001ms, 13366ms total)
T0374 3019:333 JLINK_ReadMemU8(0xE0002FD0, 0x0001 Items, ...) -- CPU is running -- CPU_ReadMem(1 bytes @ 0xE0002FD0) -- Data:  04  returns 0x01 (0001ms, 13367ms total)
T0374 3019:334 JLINK_ReadMemU8(0xE0002FD4, 0x0001 Items, ...) -- CPU is running -- CPU_ReadMem(1 bytes @ 0xE0002FD4) -- Data:  00  returns 0x01 (0000ms, 13367ms total)
T0374 3019:334 JLINK_ReadMemU8(0xE0002FD8, 0x0001 Items, ...) -- CPU is running -- CPU_ReadMem(1 bytes @ 0xE0002FD8) -- Data:  00  returns 0x01 (0001ms, 13368ms total)
T0374 3019:335 JLINK_ReadMemU8(0xE0002FDC, 0x0001 Items, ...) -- CPU is running -- CPU_ReadMem(1 bytes @ 0xE0002FDC) -- Data:  00  returns 0x01 (0001ms, 13369ms total)
T0374 3019:336 JLINK_ReadMemU8(0xE0002FE0, 0x0001 Items, ...) -- CPU is running -- CPU_ReadMem(1 bytes @ 0xE0002FE0) -- Data:  03  returns 0x01 (0001ms, 13370ms total)
T0374 3019:337 JLINK_ReadMemU8(0xE0002FE4, 0x0001 Items, ...) -- CPU is running -- CPU_ReadMem(1 bytes @ 0xE0002FE4) -- Data:  B0  returns 0x01 (0001ms, 13371ms total)
T0374 3019:338 JLINK_ReadMemU8(0xE0002FE8, 0x0001 Items, ...) -- CPU is running -- CPU_ReadMem(1 bytes @ 0xE0002FE8) -- Data:  2B  returns 0x01 (0000ms, 13371ms total)
T0374 3019:338 JLINK_ReadMemU8(0xE0002FEC, 0x0001 Items, ...) -- CPU is running -- CPU_ReadMem(1 bytes @ 0xE0002FEC) -- Data:  00  returns 0x01 (0001ms, 13372ms total)
T0374 3019:339 JLINK_ReadMemU32(0xE00FF00C, 0x0001 Items, ...) -- CPU is running -- CPU_ReadMem(4 bytes @ 0xE00FF00C) -- Data:  03 10 F0 FF  returns 0x01 (0001ms, 13373ms total)
T0374 3019:340 JLINK_ReadMemU8(0xE0000FF0, 0x0001 Items, ...) -- CPU is running -- CPU_ReadMem(1 bytes @ 0xE0000FF0) -- Data:  0D  returns 0x01 (0001ms, 13374ms total)
T0374 3019:341 JLINK_ReadMemU8(0xE0000FF4, 0x0001 Items, ...) -- CPU is running -- CPU_ReadMem(1 bytes @ 0xE0000FF4) -- Data:  E0  returns 0x01 (0001ms, 13375ms total)
T0374 3019:342 JLINK_ReadMemU8(0xE0000FF8, 0x0001 Items, ...) -- CPU is running -- CPU_ReadMem(1 bytes @ 0xE0000FF8) -- Data:  05  returns 0x01 (0001ms, 13376ms total)
T0374 3019:343 JLINK_ReadMemU8(0xE0000FFC, 0x0001 Items, ...) -- CPU is running -- CPU_ReadMem(1 bytes @ 0xE0000FFC) -- Data:  B1  returns 0x01 (0000ms, 13376ms total)
T0374 3019:343 JLINK_ReadMemU8(0xE0000FD0, 0x0001 Items, ...) -- CPU is running -- CPU_ReadMem(1 bytes @ 0xE0000FD0) -- Data:  04  returns 0x01 (0001ms, 13377ms total)
T0374 3019:344 JLINK_ReadMemU8(0xE0000FD4, 0x0001 Items, ...) -- CPU is running -- CPU_ReadMem(1 bytes @ 0xE0000FD4) -- Data:  00  returns 0x01 (0001ms, 13378ms total)
T0374 3019:345 JLINK_ReadMemU8(0xE0000FD8, 0x0001 Items, ...) -- CPU is running -- CPU_ReadMem(1 bytes @ 0xE0000FD8) -- Data:  00  returns 0x01 (0001ms, 13379ms total)
T0374 3019:346 JLINK_ReadMemU8(0xE0000FDC, 0x0001 Items, ...) -- CPU is running -- CPU_ReadMem(1 bytes @ 0xE0000FDC) -- Data:  00  returns 0x01 (0001ms, 13380ms total)
T0374 3019:347 JLINK_ReadMemU8(0xE0000FE0, 0x0001 Items, ...) -- CPU is running -- CPU_ReadMem(1 bytes @ 0xE0000FE0) -- Data:  01  returns 0x01 (0001ms, 13381ms total)
T0374 3019:348 JLINK_ReadMemU8(0xE0000FE4, 0x0001 Items, ...) -- CPU is running -- CPU_ReadMem(1 bytes @ 0xE0000FE4) -- Data:  B0  returns 0x01 (0000ms, 13381ms total)
T0374 3019:348 JLINK_ReadMemU8(0xE0000FE8, 0x0001 Items, ...) -- CPU is running -- CPU_ReadMem(1 bytes @ 0xE0000FE8) -- Data:  2B  returns 0x01 (0001ms, 13382ms total)
T0374 3019:349 JLINK_ReadMemU8(0xE0000FEC, 0x0001 Items, ...) -- CPU is running -- CPU_ReadMem(1 bytes @ 0xE0000FEC) -- Data:  00  returns 0x01 (0001ms, 13383ms total)
T0374 3019:350 JLINK_ReadMemU32(0xE00FF010, 0x0001 Items, ...) -- CPU is running -- CPU_ReadMem(4 bytes @ 0xE00FF010) -- Data:  03 10 F4 FF  returns 0x01 (0001ms, 13384ms total)
T0374 3019:351 JLINK_ReadMemU8(0xE0040FF0, 0x0001 Items, ...) -- CPU is running -- CPU_ReadMem(1 bytes @ 0xE0040FF0) -- Data:  0D  returns 0x01 (0001ms, 13385ms total)
T0374 3019:352 JLINK_ReadMemU8(0xE0040FF4, 0x0001 Items, ...) -- CPU is running -- CPU_ReadMem(1 bytes @ 0xE0040FF4) -- Data:  90  returns 0x01 (0001ms, 13386ms total)
T0374 3019:353 JLINK_ReadMemU8(0xE0040FF8, 0x0001 Items, ...) -- CPU is running -- CPU_ReadMem(1 bytes @ 0xE0040FF8) -- Data:  05  returns 0x01 (0001ms, 13387ms total)
T0374 3019:354 JLINK_ReadMemU8(0xE0040FFC, 0x0001 Items, ...) -- CPU is running -- CPU_ReadMem(1 bytes @ 0xE0040FFC) -- Data:  B1  returns 0x01 (0000ms, 13387ms total)
T0374 3019:354 JLINK_ReadMemU8(0xE0040FD0, 0x0001 Items, ...) -- CPU is running -- CPU_ReadMem(1 bytes @ 0xE0040FD0) -- Data:  04  returns 0x01 (0001ms, 13388ms total)
T0374 3019:355 JLINK_ReadMemU8(0xE0040FD4, 0x0001 Items, ...) -- CPU is running -- CPU_ReadMem(1 bytes @ 0xE0040FD4) -- Data:  00  returns 0x01 (0001ms, 13389ms total)
T0374 3019:356 JLINK_ReadMemU8(0xE0040FD8, 0x0001 Items, ...) -- CPU is running -- CPU_ReadMem(1 bytes @ 0xE0040FD8) -- Data:  00  returns 0x01 (0001ms, 13390ms total)
T0374 3019:357 JLINK_ReadMemU8(0xE0040FDC, 0x0001 Items, ...) -- CPU is running -- CPU_ReadMem(1 bytes @ 0xE0040FDC) -- Data:  00  returns 0x01 (0001ms, 13391ms total)
T0374 3019:358 JLINK_ReadMemU8(0xE0040FE0, 0x0001 Items, ...) -- CPU is running -- CPU_ReadMem(1 bytes @ 0xE0040FE0) -- Data:  23  returns 0x01 (0001ms, 13392ms total)
T0374 3019:359 JLINK_ReadMemU8(0xE0040FE4, 0x0001 Items, ...) -- CPU is running -- CPU_ReadMem(1 bytes @ 0xE0040FE4) -- Data:  B9  returns 0x01 (0000ms, 13392ms total)
T0374 3019:359 JLINK_ReadMemU8(0xE0040FE8, 0x0001 Items, ...) -- CPU is running -- CPU_ReadMem(1 bytes @ 0xE0040FE8) -- Data:  2B  returns 0x01 (0001ms, 13393ms total)
T0374 3019:360 JLINK_ReadMemU8(0xE0040FEC, 0x0001 Items, ...) -- CPU is running -- CPU_ReadMem(1 bytes @ 0xE0040FEC) -- Data:  00  returns 0x01 (0001ms, 13394ms total)
T0374 3019:361 JLINK_ReadMemU32(0xE00FF014, 0x0001 Items, ...) -- CPU is running -- CPU_ReadMem(4 bytes @ 0xE00FF014) -- Data:  02 20 F4 FF  returns 0x01 (0001ms, 13395ms total)
T0374 3019:362 JLINK_ReadMemU32(0xE00FF018, 0x0001 Items, ...) -- CPU is running -- CPU_ReadMem(4 bytes @ 0xE00FF018) -- Data:  00 00 00 00  returns 0x01 (0001ms, 13396ms total)
T0374 3019:363 JLINK_ReadMem (0xE0001000, 0x0004 Bytes, ...) -- CPU is running -- CPU_ReadMem(4 bytes @ 0xE0001000) -- Data:  01 00 00 40  returns 0x00 (0001ms, 13397ms total)
T0374 3019:364 JLINK_ReadMem (0xE0001000, 0x0004 Bytes, ...) -- CPU is running -- CPU_ReadMem(4 bytes @ 0xE0001000) -- Data:  01 00 00 40  returns 0x00 (0001ms, 13398ms total)
T0374 3019:365 JLINK_ReadMem (0xE0001028, 0x0004 Bytes, ...) -- CPU is running -- CPU_ReadMem(4 bytes @ 0xE0001028) -- Data:  00 00 00 00  returns 0x00 (0000ms, 13398ms total)
T0374 3019:365 JLINK_WriteMem(0xE0001028, 0x0004 Bytes, ...) -- Data:  00 01 00 00 -- CPU is running -- CPU_WriteMem(4 bytes @ 0xE0001028)  returns 0x04 (0001ms, 13399ms total)
T0374 3019:366 JLINK_ReadMem (0xE0001028, 0x0004 Bytes, ...) -- CPU is running -- CPU_ReadMem(4 bytes @ 0xE0001028) -- Data:  00 00 00 00  returns 0x00 (0001ms, 13400ms total)
T0374 3019:367 JLINK_ReadMem (0xE0001038, 0x0004 Bytes, ...) -- CPU is running -- CPU_ReadMem(4 bytes @ 0xE0001038) -- Data:  00 02 00 00  returns 0x00 (0001ms, 13401ms total)
T0374 3019:368 JLINK_WriteMem(0xE0001038, 0x0004 Bytes, ...) -- Data:  00 03 00 00 -- CPU is running -- CPU_WriteMem(4 bytes @ 0xE0001038)  returns 0x04 (0000ms, 13401ms total)
T0374 3019:368 JLINK_ReadMem (0xE0001038, 0x0004 Bytes, ...) -- CPU is running -- CPU_ReadMem(4 bytes @ 0xE0001038) -- Data:  00 03 00 00  returns 0x00 (0001ms, 13402ms total)
T0374 3019:369 JLINK_ReadMem (0xE0001048, 0x0004 Bytes, ...) -- CPU is running -- CPU_ReadMem(4 bytes @ 0xE0001048) -- Data:  00 00 00 00  returns 0x00 (0001ms, 13403ms total)
T0374 3019:370 JLINK_WriteMem(0xE0001048, 0x0004 Bytes, ...) -- Data:  00 01 00 00 -- CPU is running -- CPU_WriteMem(4 bytes @ 0xE0001048)  returns 0x04 (0001ms, 13404ms total)
T0374 3019:371 JLINK_ReadMem (0xE0001048, 0x0004 Bytes, ...) -- CPU is running -- CPU_ReadMem(4 bytes @ 0xE0001048) -- Data:  00 00 00 00  returns 0x00 (0001ms, 13405ms total)
T0374 3019:372 JLINK_ReadMem (0xE0001058, 0x0004 Bytes, ...) -- CPU is running -- CPU_ReadMem(4 bytes @ 0xE0001058) -- Data:  00 00 00 00  returns 0x00 (0000ms, 13405ms total)
T0374 3019:372 JLINK_WriteMem(0xE0001058, 0x0004 Bytes, ...) -- Data:  00 01 00 00 -- CPU is running -- CPU_WriteMem(4 bytes @ 0xE0001058)  returns 0x04 (0001ms, 13406ms total)
T0374 3019:373 JLINK_ReadMem (0xE0001058, 0x0004 Bytes, ...) -- CPU is running -- CPU_ReadMem(4 bytes @ 0xE0001058) -- Data:  00 00 00 00  returns 0x00 (0001ms, 13407ms total)
T0374 3019:374 JLINK_ReadMem (0xE0001024, 0x0004 Bytes, ...) -- CPU is running -- CPU_ReadMem(4 bytes @ 0xE0001024) -- Data:  00 00 00 00  returns 0x00 (0001ms, 13408ms total)
T0374 3019:375 JLINK_WriteMem(0xE0001024, 0x0004 Bytes, ...) -- Data:  1F 00 00 00 -- CPU is running -- CPU_WriteMem(4 bytes @ 0xE0001024)  returns 0x04 (0000ms, 13408ms total)
T0374 3019:375 JLINK_ReadMem (0xE0001024, 0x0004 Bytes, ...) -- CPU is running -- CPU_ReadMem(4 bytes @ 0xE0001024) -- Data:  0F 00 00 00  returns 0x00 (0001ms, 13409ms total)
T0374 3019:376 JLINK_ReadMem (0xE0001034, 0x0004 Bytes, ...) -- CPU is running -- CPU_ReadMem(4 bytes @ 0xE0001034) -- Data:  00 00 00 00  returns 0x00 (0001ms, 13410ms total)
T0374 3019:377 JLINK_WriteMem(0xE0001034, 0x0004 Bytes, ...) -- Data:  1F 00 00 00 -- CPU is running -- CPU_WriteMem(4 bytes @ 0xE0001034)  returns 0x04 (0001ms, 13411ms total)
T0374 3019:378 JLINK_ReadMem (0xE0001034, 0x0004 Bytes, ...) -- CPU is running -- CPU_ReadMem(4 bytes @ 0xE0001034) -- Data:  0F 00 00 00  returns 0x00 (0001ms, 13412ms total)
T0374 3019:379 JLINK_ReadMem (0xE0001044, 0x0004 Bytes, ...) -- CPU is running -- CPU_ReadMem(4 bytes @ 0xE0001044) -- Data:  00 00 00 00  returns 0x00 (0000ms, 13412ms total)
T0374 3019:379 JLINK_WriteMem(0xE0001044, 0x0004 Bytes, ...) -- Data:  1F 00 00 00 -- CPU is running -- CPU_WriteMem(4 bytes @ 0xE0001044)  returns 0x04 (0001ms, 13413ms total)
T0374 3019:380 JLINK_ReadMem (0xE0001044, 0x0004 Bytes, ...) -- CPU is running -- CPU_ReadMem(4 bytes @ 0xE0001044) -- Data:  0F 00 00 00  returns 0x00 (0001ms, 13414ms total)
T0374 3019:381 JLINK_ReadMem (0xE0001054, 0x0004 Bytes, ...) -- CPU is running -- CPU_ReadMem(4 bytes @ 0xE0001054) -- Data:  00 00 00 00  returns 0x00 (0001ms, 13415ms total)
T0374 3019:382 JLINK_WriteMem(0xE0001054, 0x0004 Bytes, ...) -- Data:  1F 00 00 00 -- CPU is running -- CPU_WriteMem(4 bytes @ 0xE0001054)  returns 0x04 (0000ms, 13415ms total)
T0374 3019:382 JLINK_ReadMem (0xE0001054, 0x0004 Bytes, ...) -- CPU is running -- CPU_ReadMem(4 bytes @ 0xE0001054) -- Data:  0F 00 00 00  returns 0x00 (0001ms, 13416ms total)
T0374 3019:383 JLINK_ReadMem (0xE0001028, 0x0004 Bytes, ...) -- CPU is running -- CPU_ReadMem(4 bytes @ 0xE0001028) -- Data:  00 00 00 00  returns 0x00 (0001ms, 13417ms total)
T0374 3019:384 JLINK_ReadMem (0xE0001038, 0x0004 Bytes, ...) -- CPU is running -- CPU_ReadMem(4 bytes @ 0xE0001038) -- Data:  00 03 00 00  returns 0x00 (0001ms, 13418ms total)
T0374 3019:385 JLINK_ReadMem (0xE0001048, 0x0004 Bytes, ...) -- CPU is running -- CPU_ReadMem(4 bytes @ 0xE0001048) -- Data:  00 00 00 00  returns 0x00 (0001ms, 13419ms total)
T0374 3019:386 JLINK_ReadMem (0xE0001058, 0x0004 Bytes, ...) -- CPU is running -- CPU_ReadMem(4 bytes @ 0xE0001058) -- Data:  00 00 00 00  returns 0x00 (0001ms, 13420ms total)
T0374 3019:387 JLINK_WriteMem(0xE0001020, 0x0004 Bytes, ...) -- Data:  00 00 00 00 -- CPU is running -- CPU_WriteMem(4 bytes @ 0xE0001020)  returns 0x04 (0000ms, 13420ms total)
T0374 3019:387 JLINK_WriteMem(0xE0001024, 0x0004 Bytes, ...) -- Data:  00 00 00 00 -- CPU is running -- CPU_WriteMem(4 bytes @ 0xE0001024)  returns 0x04 (0001ms, 13421ms total)
T0374 3019:388 JLINK_WriteMem(0xE0001028, 0x0004 Bytes, ...) -- Data:  00 00 00 00 -- CPU is running -- CPU_WriteMem(4 bytes @ 0xE0001028)  returns 0x04 (0001ms, 13422ms total)
T0374 3019:389 JLINK_WriteMem(0xE0001030, 0x0004 Bytes, ...) -- Data:  00 00 00 00 -- CPU is running -- CPU_WriteMem(4 bytes @ 0xE0001030)  returns 0x04 (0000ms, 13422ms total)
T0374 3019:389 JLINK_WriteMem(0xE0001034, 0x0004 Bytes, ...) -- Data:  00 00 00 00 -- CPU is running -- CPU_WriteMem(4 bytes @ 0xE0001034)  returns 0x04 (0001ms, 13423ms total)
T0374 3019:390 JLINK_WriteMem(0xE0001038, 0x0004 Bytes, ...) -- Data:  00 00 00 00 -- CPU is running -- CPU_WriteMem(4 bytes @ 0xE0001038)  returns 0x04 (0000ms, 13423ms total)
T0374 3019:390 JLINK_WriteMem(0xE0001040, 0x0004 Bytes, ...) -- Data:  00 00 00 00 -- CPU is running -- CPU_WriteMem(4 bytes @ 0xE0001040)  returns 0x04 (0001ms, 13424ms total)
T0374 3019:391 JLINK_WriteMem(0xE0001044, 0x0004 Bytes, ...) -- Data:  00 00 00 00 -- CPU is running -- CPU_WriteMem(4 bytes @ 0xE0001044)  returns 0x04 (0001ms, 13425ms total)
T0374 3019:392 JLINK_WriteMem(0xE0001048, 0x0004 Bytes, ...) -- Data:  00 00 00 00 -- CPU is running -- CPU_WriteMem(4 bytes @ 0xE0001048)  returns 0x04 (0000ms, 13425ms total)
T0374 3019:392 JLINK_WriteMem(0xE0001050, 0x0004 Bytes, ...) -- Data:  00 00 00 00 -- CPU is running -- CPU_WriteMem(4 bytes @ 0xE0001050)  returns 0x04 (0001ms, 13426ms total)
T0374 3019:393 JLINK_WriteMem(0xE0001054, 0x0004 Bytes, ...) -- Data:  00 00 00 00 -- CPU is running -- CPU_WriteMem(4 bytes @ 0xE0001054)  returns 0x04 (0001ms, 13427ms total)
T0374 3019:394 JLINK_WriteMem(0xE0001058, 0x0004 Bytes, ...) -- Data:  00 00 00 00 -- CPU is running -- CPU_WriteMem(4 bytes @ 0xE0001058)  returns 0x04 (0000ms, 13427ms total)
T0374 3019:395 JLINK_WriteVectorCatch(0x00000001) -- CPU is running -- CPU_ReadMem(4 bytes @ 0xE000EDFC) -- CPU is running -- CPU_WriteMem(4 bytes @ 0xE000EDFC)  returns 0x00 (0001ms, 13428ms total)
T0374 3019:396 JLINK_Reset() -- CPU_ReadMem(16 bytes @ 0x20000000) -- CPU_WriteMem(16 bytes @ 0x20000000) -- CPU_ReadMem(4 bytes @ 0xE000EDFC) -- CPU_WriteMem(4 bytes @ 0xE000EDFC) -- CPU_WriteMem(4 bytes @ 0xE000ED0C) -- CPU_ReadMem(4 bytes @ 0xE000EDF0) -- CPU_ReadMem(4 bytes @ 0xE000EDF0) -- CPU_WriteMem(4 bytes @ 0xE000EDFC) -- CPU_WriteMem(16 bytes @ 0x20000000) -- CPU_WriteMem(4 bytes @ 0xE0002000) -- CPU_ReadMem(4 bytes @ 0xE000EDFC) -- CPU_ReadMem(4 bytes @ 0xE0001000) (0044ms, 13472ms total)
T0374 3019:440 JLINK_JTAG_GetDeviceID(DeviceIndex = 0)  returns 0x4BA00477 (0000ms, 13472ms total)
T0374 3019:440 JLINK_ReadMemU32(0x400E0740, 0x0001 Items, ...) -- CPU_ReadMem(4 bytes @ 0x400E0740) -- Data:  60 09 54 29  returns 0x01 (0001ms, 13473ms total)
T0374 3019:441 JLINK_WriteMem(0x400E0A04, 0x0004 Bytes, ...) -- Data:  09 00 00 5A -- CPU_WriteMem(4 bytes @ 0x400E0A04)  returns 0x04 (0001ms, 13474ms total)
T0374 3019:442 JLINK_ReadMem (0x400E0A08, 0x0004 Bytes, ...) -- CPU_ReadMem(4 bytes @ 0x400E0A08) -- Data:  01 00 00 00  returns 0x00 (0001ms, 13475ms total)
T0374 3019:443 JLINK_WriteMem(0x400E0A04, 0x0004 Bytes, ...) -- Data:  09 40 00 5A -- CPU_WriteMem(4 bytes @ 0x400E0A04)  returns 0x04 (0001ms, 13476ms total)
T0374 3019:444 JLINK_ReadMem (0x400E0A08, 0x0004 Bytes, ...) -- CPU_ReadMem(4 bytes @ 0x400E0A08) -- Data:  01 00 00 00  returns 0x00 (0000ms, 13476ms total)
T0374 3019:444 JLINK_WriteMem(0x400E0A04, 0x0004 Bytes, ...) -- Data:  09 80 00 5A -- CPU_WriteMem(4 bytes @ 0x400E0A04)  returns 0x04 (0001ms, 13477ms total)
T0374 3019:445 JLINK_ReadMem (0x400E0A08, 0x0004 Bytes, ...) -- CPU_ReadMem(4 bytes @ 0x400E0A08) -- Data:  01 00 00 00  returns 0x00 (0001ms, 13478ms total)
T0374 3019:446 JLINK_WriteMem(0x400E0A04, 0x0004 Bytes, ...) -- Data:  09 C0 00 5A -- CPU_WriteMem(4 bytes @ 0x400E0A04)  returns 0x04 (0001ms, 13479ms total)
T0374 3019:447 JLINK_ReadMem (0x400E0A08, 0x0004 Bytes, ...) -- CPU_ReadMem(4 bytes @ 0x400E0A08) -- Data:  01 00 00 00  returns 0x00 (0000ms, 13479ms total)
T0374 3019:447 JLINK_WriteMem(0x400E0A04, 0x0004 Bytes, ...) -- Data:  09 00 01 5A -- CPU_WriteMem(4 bytes @ 0x400E0A04)  returns 0x04 (0001ms, 13480ms total)
T0374 3019:448 JLINK_ReadMem (0x400E0A08, 0x0004 Bytes, ...) -- CPU_ReadMem(4 bytes @ 0x400E0A08) -- Data:  01 00 00 00  returns 0x00 (0001ms, 13481ms total)
T0374 3019:449 JLINK_WriteMem(0x400E0A04, 0x0004 Bytes, ...) -- Data:  09 40 01 5A -- CPU_WriteMem(4 bytes @ 0x400E0A04)  returns 0x04 (0001ms, 13482ms total)
T0374 3019:450 JLINK_ReadMem (0x400E0A08, 0x0004 Bytes, ...) -- CPU_ReadMem(4 bytes @ 0x400E0A08) -- Data:  01 00 00 00  returns 0x00 (0001ms, 13483ms total)
T0374 3019:451 JLINK_WriteMem(0x400E0A04, 0x0004 Bytes, ...) -- Data:  09 80 01 5A -- CPU_WriteMem(4 bytes @ 0x400E0A04)  returns 0x04 (0000ms, 13483ms total)
T0374 3019:451 JLINK_ReadMem (0x400E0A08, 0x0004 Bytes, ...) -- CPU_ReadMem(4 bytes @ 0x400E0A08) -- Data:  01 00 00 00  returns 0x00 (0001ms, 13484ms total)
T0374 3019:452 JLINK_WriteMem(0x400E0A04, 0x0004 Bytes, ...) -- Data:  09 C0 01 5A -- CPU_WriteMem(4 bytes @ 0x400E0A04)  returns 0x04 (0001ms, 13485ms total)
T0374 3019:453 JLINK_ReadMem (0x400E0A08, 0x0004 Bytes, ...) -- CPU_ReadMem(4 bytes @ 0x400E0A08) -- Data:  01 00 00 00  returns 0x00 (0001ms, 13486ms total)
T0374 3019:454 JLINK_WriteMem(0x400E0A04, 0x0004 Bytes, ...) -- Data:  09 00 02 5A -- CPU_WriteMem(4 bytes @ 0x400E0A04)  returns 0x04 (0000ms, 13486ms total)
T0374 3019:454 JLINK_ReadMem (0x400E0A08, 0x0004 Bytes, ...) -- CPU_ReadMem(4 bytes @ 0x400E0A08) -- Data:  01 00 00 00  returns 0x00 (0001ms, 13487ms total)
T0374 3019:455 JLINK_WriteMem(0x400E0A04, 0x0004 Bytes, ...) -- Data:  09 40 02 5A -- CPU_WriteMem(4 bytes @ 0x400E0A04)  returns 0x04 (0001ms, 13488ms total)
T0374 3019:456 JLINK_ReadMem (0x400E0A08, 0x0004 Bytes, ...) -- CPU_ReadMem(4 bytes @ 0x400E0A08) -- Data:  01 00 00 00  returns 0x00 (0001ms, 13489ms total)
T0374 3019:457 JLINK_WriteMem(0x400E0A04, 0x0004 Bytes, ...) -- Data:  09 80 02 5A -- CPU_WriteMem(4 bytes @ 0x400E0A04)  returns 0x04 (0001ms, 13490ms total)
T0374 3019:458 JLINK_ReadMem (0x400E0A08, 0x0004 Bytes, ...) -- CPU_ReadMem(4 bytes @ 0x400E0A08) -- Data:  01 00 00 00  returns 0x00 (0000ms, 13490ms total)
T0374 3019:458 JLINK_WriteMem(0x400E0A04, 0x0004 Bytes, ...) -- Data:  09 C0 02 5A -- CPU_WriteMem(4 bytes @ 0x400E0A04)  returns 0x04 (0001ms, 13491ms total)
T0374 3019:459 JLINK_ReadMem (0x400E0A08, 0x0004 Bytes, ...) -- CPU_ReadMem(4 bytes @ 0x400E0A08) -- Data:  01 00 00 00  returns 0x00 (0001ms, 13492ms total)
T0374 3019:460 JLINK_WriteMem(0x400E0A04, 0x0004 Bytes, ...) -- Data:  09 00 03 5A -- CPU_WriteMem(4 bytes @ 0x400E0A04)  returns 0x04 (0001ms, 13493ms total)
T0374 3019:461 JLINK_ReadMem (0x400E0A08, 0x0004 Bytes, ...) -- CPU_ReadMem(4 bytes @ 0x400E0A08) -- Data:  01 00 00 00  returns 0x00 (0000ms, 13493ms total)
T0374 3019:461 JLINK_WriteMem(0x400E0A04, 0x0004 Bytes, ...) -- Data:  09 40 03 5A -- CPU_WriteMem(4 bytes @ 0x400E0A04)  returns 0x04 (0001ms, 13494ms total)
T0374 3019:462 JLINK_ReadMem (0x400E0A08, 0x0004 Bytes, ...) -- CPU_ReadMem(4 bytes @ 0x400E0A08) -- Data:  01 00 00 00  returns 0x00 (0001ms, 13495ms total)
T0374 3019:463 JLINK_WriteMem(0x400E0A04, 0x0004 Bytes, ...) -- Data:  09 80 03 5A -- CPU_WriteMem(4 bytes @ 0x400E0A04)  returns 0x04 (0001ms, 13496ms total)
T0374 3019:464 JLINK_ReadMem (0x400E0A08, 0x0004 Bytes, ...) -- CPU_ReadMem(4 bytes @ 0x400E0A08) -- Data:  01 00 00 00  returns 0x00 (0000ms, 13496ms total)
T0374 3019:464 JLINK_WriteMem(0x400E0A04, 0x0004 Bytes, ...) -- Data:  09 C0 03 5A -- CPU_WriteMem(4 bytes @ 0x400E0A04)  returns 0x04 (0001ms, 13497ms total)
T0374 3019:465 JLINK_ReadMem (0x400E0A08, 0x0004 Bytes, ...) -- CPU_ReadMem(4 bytes @ 0x400E0A08) -- Data:  01 00 00 00  returns 0x00 (0001ms, 13498ms total)
T0374 3019:466 JLINK_WriteMem(0x400E0A04, 0x0004 Bytes, ...) -- Data:  05 00 00 5A -- CPU_WriteMem(4 bytes @ 0x400E0A04)  returns 0x04 (0001ms, 13499ms total)
T0374 3019:467 JLINK_ReadMem (0x400E0A08, 0x0004 Bytes, ...) -- CPU_ReadMem(4 bytes @ 0x400E0A08) -- Data:  00 00 00 00  returns 0x00 (0000ms, 13499ms total)
T0374 3019:469 JLINK_ReadMem (0x400E0A08, 0x0004 Bytes, ...) -- CPU_ReadMem(4 bytes @ 0x400E0A08) -- Data:  00 00 00 00  returns 0x00 (0000ms, 13499ms total)
T0374 3019:474 JLINK_ReadMem (0x400E0A08, 0x0004 Bytes, ...) -- CPU_ReadMem(4 bytes @ 0x400E0A08) -- Data:  00 00 00 00  returns 0x00 (0001ms, 13500ms total)
T0374 3019:492 JLINK_ReadMem (0x400E0A08, 0x0004 Bytes, ...) -- CPU_ReadMem(4 bytes @ 0x400E0A08) -- Data:  01 00 00 00  returns 0x00 (0001ms, 13501ms total)
T0374 3019:493 JLINK_WriteVectorCatch(0x00000001) -- CPU_ReadMem(4 bytes @ 0xE000EDFC)  returns 0x00 (0001ms, 13502ms total)
T0374 3019:494 JLINK_Reset() -- CPU_ReadMem(16 bytes @ 0x20000000) -- CPU_WriteMem(16 bytes @ 0x20000000) -- CPU_ReadMem(4 bytes @ 0xE000EDFC) -- CPU_WriteMem(4 bytes @ 0xE000EDFC) -- CPU_WriteMem(4 bytes @ 0xE0001004) -- CPU_WriteMem(4 bytes @ 0xE000ED0C) -- CPU_ReadMem(4 bytes @ 0xE000EDF0) -- CPU_ReadMem(4 bytes @ 0xE000EDF0) -- CPU_WriteMem(4 bytes @ 0xE000EDFC) -- CPU_WriteMem(16 bytes @ 0x20000000) -- CPU_WriteMem(4 bytes @ 0xE0002000) -- CPU_ReadMem(4 bytes @ 0xE000EDFC)
 -- CPU_ReadMem(4 bytes @ 0xE0001000) (0036ms, 13538ms total)
T0374 3019:530 JLINK_WriteVectorCatch(0x00000000) -- CPU_ReadMem(4 bytes @ 0xE000EDFC) -- CPU_WriteMem(4 bytes @ 0xE000EDFC)  returns 0x00 (0002ms, 13540ms total)
T0374 3019:532 JLINK_Go() -- CPU_WriteMem(4 bytes @ 0xE0001004) (0001ms, 13541ms total)
T0374 3019:533 JLINK_ExecCommand("ProjectFile = D:\Dropbox\TCC\IMU\TWI - I2C\Testes\TWI_MultiReads_AngleXY\TWI_MultiReads_AngleXY\jlink.config", ...)  returns 0x00 (0001ms, 13542ms total)
T0374 3019:554 JLINK_ExecCommand("Device = AT91SAM3N4C", ...)Device "ATSAM3N4C" selected (256 KB flash, 24 KB RAM).  returns 0x00 (0000ms, 13542ms total)
T0374 3019:554 JLINK_TIF_Select(JLINKARM_TIF_JTAG)  returns 0x00 (0000ms, 13542ms total)
T0374 3019:554 JLINK_GetIdData(...) ScanLen=4 NumDevices=1 aId[0]=0x4BA00477 aIrRead[0]=0 aScanLen[0]=0 aScanRead[0]=0 (0000ms, 13542ms total)
T0374 3019:554 JLINK_ConfigJTAG(IRPre = 0, DRPre = 0) (0000ms, 13542ms total)
T0374 3019:554 JLINK_SetSpeed(1000) (0000ms, 13542ms total)
T0374 3019:554 JLINK_Connect() >0x2F8 JTAG>TotalIRLen = 4, IRPrint = 0x01 >0x30 JTAG> >0x210 JTAG> >0x70 JTAG> >0x40 JTAG> >0x40 JTAG> >0x40 JTAG> >0x48 JTAG> >0x78 JTAG> >0x40 JTAG> >0x30 JTAG> >0x40 JTAG> >0x40 JTAG> >0x30 JTAG> >0x40 JTAG> >0x48 JTAG>Found Cortex-M3 r2p0, Little endian. -- CPU_WriteMem(4 bytes @ 0xE0002000) -- CPU_ReadMem(4 bytes @ 0xE000EDF0) -- CPU_ReadMem(4 bytes @ 0xE0002000)FPUnit: 6 code (BP) slots and 2 literal slots -- CPU_ReadMem(4 bytes @ 0xE0001000)
 -- CPU_WriteMem(4 bytes @ 0xE0001000) -- CPU_ReadMem(4 bytes @ 0xE00FF010)TPIU fitted. -- CPU_ReadMem(4 bytes @ 0xE00FF014) -- CPU_ReadMem(4 bytes @ 0xE00FF018)  returns 0x00 (0014ms, 13556ms total)
T0374 3019:569 JLINK_WriteVectorCatch(0x00000001) -- CPU is running -- CPU_ReadMem(4 bytes @ 0xE000EDFC) -- CPU is running -- CPU_WriteMem(4 bytes @ 0xE000EDFC)  returns 0x00 (0001ms, 13557ms total)
T0374 3019:570 JLINK_Reset() -- CPU_ReadMem(16 bytes @ 0x20000000) -- CPU_WriteMem(16 bytes @ 0x20000000) -- CPU_ReadMem(4 bytes @ 0xE000EDFC) -- CPU_WriteMem(4 bytes @ 0xE000EDFC) -- CPU_WriteMem(4 bytes @ 0xE000ED0C) -- CPU_ReadMem(4 bytes @ 0xE000EDF0) -- CPU_ReadMem(4 bytes @ 0xE000EDF0) -- CPU_WriteMem(4 bytes @ 0xE000EDFC) -- CPU_WriteMem(16 bytes @ 0x20000000) -- CPU_WriteMem(4 bytes @ 0xE0002000) -- CPU_ReadMem(4 bytes @ 0xE000EDFC) -- CPU_ReadMem(4 bytes @ 0xE0001000) (0044ms, 13601ms total)
T0374 3019:615 JLINK_JTAG_GetDeviceID(DeviceIndex = 0)  returns 0x4BA00477 (0000ms, 13601ms total)
T0374 3019:615 JLINK_ReadMemU32(0x400E0740, 0x0001 Items, ...) -- CPU_ReadMem(4 bytes @ 0x400E0740) -- Data:  60 09 54 29  returns 0x01 (0001ms, 13602ms total)
T0374 3019:618 JLINK_ReadMemHW(0x00408E00, 0x0100 Bytes, ...) -- CPU_ReadMem(256 bytes @ 0x00408E00) -- Data:  FF FF FF FF FF FF FF FF FF FF FF FF FF FF FF FF ...  returns 0x00 (0004ms, 13606ms total)
T0374 3019:622 JLINK_ReadMemHW(0x00409700, 0x0100 Bytes, ...) -- CPU_ReadMem(256 bytes @ 0x00409700) -- Data:  FF FF FF FF FF FF FF FF FF FF FF FF FF FF FF FF ...  returns 0x00 (0004ms, 13610ms total)
T0374 3019:638 JLINK_BeginDownload(Flags = 0x00) (0000ms, 13610ms total)
T0374 3019:638 JLINK_WriteMem(0x00400000, 0x0100 Bytes, ...) -- Data:  28 14 00 20 8D 16 40 00 89 16 40 00 89 16 40 00 ...  returns 0x100 (0000ms, 13610ms total)
T0374 3019:638 JLINK_WriteMem(0x00400100, 0x0100 Bytes, ...) -- Data:  FB D0 90 47 F9 E7 00 BF 14 8E 40 00 14 8E 40 00 ...  returns 0x100 (0000ms, 13610ms total)
T0374 3019:638 JLINK_WriteMem(0x00400200, 0x0100 Bytes, ...) -- Data:  08 22 0C 4B 98 47 28 46 21 68 72 08 0A 4B 98 47 ...  returns 0x100 (0000ms, 13610ms total)
T0374 3019:638 JLINK_WriteMem(0x00400300, 0x0100 Bytes, ...) -- Data:  02 0F F9 D0 44 68 14 F0 02 0F 06 D0 12 04 02 F4 ...  returns 0x100 (0001ms, 13611ms total)
T0374 3019:639 JLINK_WriteMem(0x00400400, 0x0100 Bytes, ...) -- Data:  43 EA 02 42 0A 63 70 47 0F 4B 99 42 19 D8 49 00 ...  returns 0x100 (0000ms, 13611ms total)
T0374 3019:639 JLINK_WriteMem(0x00400500, 0x0100 Bytes, ...) -- Data:  05 D1 BC F1 00 0F 02 D1 C4 F8 00 90 C4 46 11 F0 ...  returns 0x100 (0000ms, 13611ms total)
T0374 3019:639 JLINK_WriteMem(0x00400600, 0x0100 Bytes, ...) -- Data:  43 69 13 F0 02 0F 04 D0 C1 F3 08 01 C1 61 00 20 ...  returns 0x100 (0000ms, 13611ms total)
T0374 3019:639 JLINK_WriteMem(0x00400700, 0x0100 Bytes, ...) -- Data:  03 4B 98 47 09 B0 5D F8 04 FB 00 BF 00 80 01 40 ...  returns 0x100 (0000ms, 13611ms total)
T0374 3019:639 JLINK_WriteMem(0x00400800, 0x0100 Bytes, ...) -- Data:  60 60 09 E0 14 4A D0 78 40 EA 03 20 14 4B 98 47 ...  returns 0x100 (0000ms, 13611ms total)
T0374 3019:639 JLINK_WriteMem(0x00400900, 0x0100 Bytes, ...) -- Data:  28 4B 98 47 00 F1 00 40 60 60 0F E0 20 4A 90 78 ...  returns 0x100 (0000ms, 13611ms total)
T0374 3019:639 JLINK_WriteMem(0x00400A00, 0x0100 Bytes, ...) -- Data:  C0 F1 11 00 10 28 34 BF 06 46 10 26 00 2E 08 BF ...  returns 0x100 (0000ms, 13611ms total)
T0374 3019:639 JLINK_WriteMem(0x00400B00, 0x0100 Bytes, ...) -- Data:  0B 4C 20 46 02 21 00 22 0A 4D A8 47 01 23 23 60 ...  returns 0x100 (0000ms, 13611ms total)
T0374 3019:639 JLINK_WriteMem(0x00400C00, 0x0100 Bytes, ...) -- Data:  41 F2 17 01 01 4B 98 47 08 BD 00 BF 71 0B 40 00 ...  returns 0x100 (0000ms, 13611ms total)
T0374 3019:639 JLINK_WriteMem(0x00400D00, 0x0100 Bytes, ...) -- Data:  20 46 39 46 4E 4B 98 47 01 27 27 60 67 61 4D 4B ...  returns 0x100 (0000ms, 13611ms total)
T0374 3019:639 JLINK_WriteMem(0x00400E00, 0x0100 Bytes, ...) -- Data:  D9 F8 00 20 D9 F8 04 30 10 4C A0 47 D9 F8 08 00 ...  returns 0x100 (0000ms, 13611ms total)
T0374 3019:639 JLINK_WriteMem(0x00400F00, 0x0100 Bytes, ...) -- Data:  12 4D 38 46 31 46 A8 47 01 3C FA D1 0D 49 A1 FB ...  returns 0x100 (0000ms, 13611ms total)
T0374 3019:639 JLINK_WriteMem(0x00401000, 0x0100 Bytes, ...) -- Data:  5D 0E 40 00 10 B4 AC 23 03 60 0A 68 4B 68 B2 FB ...  returns 0x100 (0000ms, 13611ms total)
T0374 3019:639 JLINK_WriteMem(0x00401100, 0x0100 Bytes, ...) -- Data:  10 20 29 49 A0 47 29 48 4F F4 C0 61 4F F0 00 62 ...  returns 0x100 (0000ms, 13611ms total)
T0374 3019:639 JLINK_WriteMem(0x00401200, 0x0100 Bytes, ...) -- Data:  21 40 0B 40 43 67 19 E0 03 6F 13 43 03 67 43 6F ...  returns 0x100 (0000ms, 13611ms total)
T0374 3019:639 JLINK_WriteMem(0x00401300, 0x0100 Bytes, ...) -- Data:  80 5F 21 D0 B4 F1 C0 5F 2F D0 B4 F1 00 6F 6F D1 ...  returns 0x100 (0000ms, 13611ms total)
T0374 3019:639 JLINK_WriteMem(0x00401400, 0x0100 Bytes, ...) -- Data:  79 12 40 00 F0 B5 83 B0 07 46 0E 46 15 46 02 F0 ...  returns 0x100 (0000ms, 13611ms total)
T0374 3019:639 JLINK_WriteMem(0x00401500, 0x0100 Bytes, ...) -- Data:  54 F8 0C 3C B3 42 0A D1 54 F8 08 1C 29 42 06 D0 ...  returns 0x100 (0000ms, 13611ms total)
T0374 3019:639 JLINK_WriteMem(0x00401600, 0x0100 Bytes, ...) -- Data:  89 B2 0B 43 13 62 93 6E 13 F0 01 0F FB D0 04 4A ...  returns 0x100 (0000ms, 13611ms total)
T0374 3019:639 JLINK_WriteMem(0x00401700, 0x0100 Bytes, ...) -- Data:  98 47 0D 4B 98 47 FE E7 00 00 00 20 14 8E 40 00 ...  returns 0x100 (0000ms, 13611ms total)
T0374 3019:639 JLINK_WriteMem(0x00401800, 0x0100 Bytes, ...) -- Data:  0A 4B 1A 68 0D 49 A1 FB 02 02 52 08 1A 60 70 47 ...  returns 0x100 (0000ms, 13611ms total)
T0374 3019:639 JLINK_WriteMem(0x00401900, 0x0100 Bytes, ...) -- Data:  00 06 0E 40 51 10 40 00 00 08 0E 40 00 40 02 40 ...  returns 0x100 (0001ms, 13612ms total)
T0374 3019:640 JLINK_WriteMem(0x00401A00, 0x0100 Bytes, ...) -- Data:  10 0C 00 20 59 0A 40 00 95 0C 40 00 FD 09 40 00 ...  returns 0x100 (0000ms, 13612ms total)
T0374 3019:640 JLINK_WriteMem(0x00401B00, 0x0100 Bytes, ...) -- Data:  48 4B 98 47 CB F8 00 00 47 48 48 4B 98 47 DB F8 ...  returns 0x100 (0000ms, 13612ms total)
T0374 3019:640 JLINK_WriteMem(0x00401C00, 0x0100 Bytes, ...) -- Data:  15 07 40 00 21 0C 40 00 84 8B 40 00 51 0F 40 00 ...  returns 0x100 (0000ms, 13612ms total)
T0374 3019:640 JLINK_WriteMem(0x00401D00, 0x0100 Bytes, ...) -- Data:  01 26 04 46 20 E0 55 4B 9D 42 14 DC 4F F0 7F 51 ...  returns 0x100 (0000ms, 13612ms total)
T0374 3019:640 JLINK_WriteMem(0x00401E00, 0x0100 Bytes, ...) -- Data:  00 F0 6C FC BD E8 F0 81 40 46 00 F0 69 FC 20 4D ...  returns 0x100 (0000ms, 13612ms total)
T0374 3019:640 JLINK_WriteMem(0x00401F00, 0x0100 Bytes, ...) -- Data:  88 BF 30 BD 11 F0 00 4F 4F EA 01 31 4F F4 80 1C ...  returns 0x100 (0000ms, 13612ms total)
T0374 3019:640 JLINK_WriteMem(0x00402000, 0x0100 Bytes, ...) -- Data:  0C 32 08 DD 02 F1 14 0C C2 F1 0C 02 01 FA 0C F0 ...  returns 0x100 (0000ms, 13612ms total)
T0374 3019:640 JLINK_WriteMem(0x00402100, 0x0100 Bytes, ...) -- Data:  19 46 10 46 7F EA 65 5C 1C BF 0B 46 02 46 50 EA ...  returns 0x100 (0000ms, 13612ms total)
T0374 3019:640 JLINK_WriteMem(0x00402200, 0x0100 Bytes, ...) -- Data:  03 FE 40 EA 0E 00 21 FA 02 F1 14 44 C1 E6 00 BF ...  returns 0x100 (0000ms, 13612ms total)
T0374 3019:640 JLINK_WriteMem(0x00402300, 0x0100 Bytes, ...) -- Data:  C4 F1 00 04 20 3C 35 DA 0C 34 1B DC 04 F1 14 04 ...  returns 0x100 (0000ms, 13612ms total)
T0374 3019:640 JLINK_WriteMem(0x00402400, 0x0100 Bytes, ...) -- Data:  18 BF 52 EA 43 06 D1 D1 81 EA 03 01 01 F0 00 41 ...  returns 0x100 (0000ms, 13612ms total)
T0374 3019:640 JLINK_WriteMem(0x00402500, 0x0100 Bytes, ...) -- Data:  02 0E 75 EB 03 0E 22 BF B6 1A 75 46 40 EA 5C 00 ...  returns 0x100 (0000ms, 13612ms total)
T0374 3019:640 JLINK_WriteMem(0x00402600, 0x0100 Bytes, ...) -- Data:  95 EA 0C 0F 06 D1 52 EA 03 35 3F F4 FD AE 10 46 ...  returns 0x100 (0000ms, 13612ms total)
T0374 3019:640 JLINK_WriteMem(0x00402700, 0x0100 Bytes, ...) -- Data:  D2 18 41 40 48 40 41 40 B8 BF 5B 42 19 2B 88 BF ...  returns 0x100 (0000ms, 13612ms total)
T0374 3019:640 JLINK_WriteMem(0x00402800, 0x0100 Bytes, ...) -- Data:  40 F0 00 40 70 47 12 F1 00 72 3C BF 00 F5 00 00 ...  returns 0x100 (0000ms, 13612ms total)
T0374 3019:640 JLINK_WriteMem(0x00402900, 0x0100 Bytes, ...) -- Data:  0C 0F 93 EA 0C 0F 6F D0 1A 44 80 EA 01 0C 40 02 ...  returns 0x100 (0000ms, 13612ms total)
T0374 3019:640 JLINK_WriteMem(0x00402A00, 0x0100 Bytes, ...) -- Data:  00 4C D8 D1 80 EA 01 00 00 F0 00 40 70 47 90 F0 ...  returns 0x100 (0000ms, 13612ms total)
T0374 3019:640 JLINK_WriteMem(0x00402B00, 0x0100 Bytes, ...) -- Data:  40 EA C2 50 70 47 40 F4 00 00 4F F0 00 03 01 3A ...  returns 0x100 (0000ms, 13612ms total)
T0374 3019:640 JLINK_WriteMem(0x00402C00, 0x0100 Bytes, ...) -- Data:  84 46 08 46 61 46 FF E7 0F B5 FF F7 C9 FF 00 28 ...  returns 0x100 (0000ms, 13612ms total)
T0374 3019:640 JLINK_WriteMem(0x00402D00, 0x0100 Bytes, ...) -- Data:  5D F8 04 EB 03 B0 70 47 02 44 03 46 93 42 02 D0 ...  returns 0x100 (0000ms, 13612ms total)
T0374 3019:640 JLINK_WriteMem(0x00402E00, 0x0100 Bytes, ...) -- Data:  4F F0 FF 30 00 E0 00 20 A3 89 43 F0 02 03 A3 81 ...  returns 0x100 (0001ms, 13613ms total)
T0374 3019:641 JLINK_WriteMem(0x00402F00, 0x0100 Bytes, ...) -- Data:  4F F6 FF 73 02 90 06 90 AD F8 16 30 28 46 21 AB ...  returns 0x100 (0000ms, 13613ms total)
T0374 3019:641 JLINK_WriteMem(0x00403000, 0x0100 Bytes, ...) -- Data:  00 F0 26 87 00 23 01 34 8D F8 77 30 4F F0 FF 39 ...  returns 0x100 (0000ms, 13613ms total)
T0374 3019:641 JLINK_WriteMem(0x00403100, 0x0100 Bytes, ...) -- Data:  77 30 1B 94 6E E2 00 2B 08 BF 20 23 F1 E7 47 F0 ...  returns 0x100 (0000ms, 13613ms total)
T0374 3019:641 JLINK_WriteMem(0x00403200, 0x0100 Bytes, ...) -- Data:  D8 F8 00 40 17 F0 40 0F 18 BF 24 B2 E5 17 98 46 ...  returns 0x100 (0000ms, 13613ms total)
T0374 3019:641 JLINK_WriteMem(0x00403300, 0x0100 Bytes, ...) -- Data:  01 E0 4D 46 02 23 8D E8 28 00 1F AB 02 93 20 AB ...  returns 0x100 (0000ms, 13613ms total)
T0374 3019:641 JLINK_WriteMem(0x00403400, 0x0100 Bytes, ...) -- Data:  F2 DC 01 F1 30 03 04 F8 01 3D 0D F1 86 03 0D F1 ...  returns 0x100 (0000ms, 13613ms total)
T0374 3019:641 JLINK_WriteMem(0x00403500, 0x0100 Bytes, ...) -- Data:  57 E5 47 F0 10 07 17 F0 20 03 09 D0 08 F1 07 08 ...  returns 0x100 (0000ms, 13613ms total)
T0374 3019:641 JLINK_WriteMem(0x00403600, 0x0100 Bytes, ...) -- Data:  04 03 04 D1 7A 06 02 D5 B8 F8 00 40 01 E0 D8 F8 ...  returns 0x100 (0000ms, 13613ms total)
T0374 3019:641 JLINK_WriteMem(0x00403700, 0x0100 Bytes, ...) -- Data:  54 EA 05 02 ED D1 0C E0 33 B9 FB 07 07 D5 42 AC ...  returns 0x100 (0000ms, 13613ms total)
T0374 3019:641 JLINK_WriteMem(0x00403800, 0x0100 Bytes, ...) -- Data:  40 F0 2D 83 32 AE 9D F8 77 30 BB B1 0D F1 77 03 ...  returns 0x100 (0000ms, 13613ms total)
T0374 3019:641 JLINK_WriteMem(0x00403900, 0x0100 Bytes, ...) -- Data:  73 60 27 9B 10 33 27 93 26 9B 01 33 07 2B 26 93 ...  returns 0x100 (0000ms, 13613ms total)
T0374 3019:641 JLINK_WriteMem(0x00403A00, 0x0100 Bytes, ...) -- Data:  27 93 26 9B 01 33 07 2B 26 93 01 DC 08 36 08 E0 ...  returns 0x100 (0000ms, 13613ms total)
T0374 3019:641 JLINK_WriteMem(0x00403B00, 0x0100 Bytes, ...) -- Data:  25 AA 03 F0 9D FA 00 28 40 F0 A9 81 32 AE 07 9D ...  returns 0x100 (0000ms, 13613ms total)
T0374 3019:641 JLINK_WriteMem(0x00403C00, 0x0100 Bytes, ...) -- Data:  25 AA 03 F0 1D FA 00 28 40 F0 29 81 32 AE 1F 9B ...  returns 0x100 (0000ms, 13613ms total)
T0374 3019:641 JLINK_WriteMem(0x00403D00, 0x0100 Bytes, ...) -- Data:  01 33 07 2B 74 60 26 93 01 DC 08 36 08 E0 50 46 ...  returns 0x100 (0000ms, 13613ms total)
T0374 3019:641 JLINK_WriteMem(0x00403E00, 0x0100 Bytes, ...) -- Data:  01 DC 08 36 06 E0 50 46 59 46 25 AA 03 F0 18 F9 ...  returns 0x100 (0000ms, 13613ms total)
T0374 3019:641 JLINK_WriteMem(0x00403F00, 0x0100 Bytes, ...) -- Data:  43 F4 00 53 A8 F8 0C 30 D8 F8 64 30 23 F4 00 53 ...  returns 0x100 (0000ms, 13613ms total)
T0374 3019:641 JLINK_WriteMem(0x00404000, 0x0100 Bytes, ...) -- Data:  2D 2B 60 D0 F4 E1 39 2B 07 DC 31 2B 7F DA 30 2B ...  returns 0x100 (0000ms, 13613ms total)
T0374 3019:641 JLINK_WriteMem(0x00404100, 0x0100 Bytes, ...) -- Data:  11 F8 01 3B F5 E7 4A EA EA 7A 02 91 62 E7 00 25 ...  returns 0x100 (0000ms, 13613ms total)
T0374 3019:641 JLINK_WriteMem(0x00404200, 0x0100 Bytes, ...) -- Data:  06 F1 04 02 06 D1 17 F0 40 03 03 D0 34 88 00 25 ...  returns 0x100 (0000ms, 13613ms total)
T0374 3019:641 JLINK_WriteMem(0x00404300, 0x0100 Bytes, ...) -- Data:  27 F0 80 07 54 EA 05 01 02 D1 BA F1 00 0F 5E D0 ...  returns 0x100 (0000ms, 13613ms total)
T0374 3019:641 JLINK_WriteMem(0x00404400, 0x0100 Bytes, ...) -- Data:  8D F8 37 50 4F F0 01 0A 0D F1 48 09 00 E0 05 46 ...  returns 0x100 (0001ms, 13614ms total)
T0374 3019:642 JLINK_WriteMem(0x00404500, 0x0100 Bytes, ...) -- Data:  01 33 07 2B 10 93 02 DC 0C F1 08 0C 09 E0 58 46 ...  returns 0x100 (0000ms, 13614ms total)
T0374 3019:642 JLINK_WriteMem(0x00404600, 0x0100 Bytes, ...) -- Data:  02 DC 0C F1 08 0C 08 E0 58 46 41 46 0F AA FF F7 ...  returns 0x100 (0000ms, 13614ms total)
T0374 3019:642 JLINK_WriteMem(0x00404700, 0x0100 Bytes, ...) -- Data:  04 4A 05 46 0C 46 10 68 29 46 22 46 BD E8 30 40 ...  returns 0x100 (0000ms, 13614ms total)
T0374 3019:642 JLINK_WriteMem(0x00404800, 0x0100 Bytes, ...) -- Data:  05 D0 00 22 A2 60 62 69 52 42 A2 61 03 E0 99 07 ...  returns 0x100 (0000ms, 13614ms total)
T0374 3019:642 JLINK_WriteMem(0x00404900, 0x0100 Bytes, ...) -- Data:  00 2A F8 D1 01 3C F3 E7 40 46 01 F0 AE FF 00 28 ...  returns 0x100 (0000ms, 13614ms total)
T0374 3019:642 JLINK_WriteMem(0x00404A00, 0x0100 Bytes, ...) -- Data:  DD E9 04 45 00 22 20 46 29 46 00 23 03 F0 AC F9 ...  returns 0x100 (0000ms, 13614ms total)
T0374 3019:642 JLINK_WriteMem(0x00404B00, 0x0100 Bytes, ...) -- Data:  09 F1 FF 39 B9 F1 16 0F 0D D8 4D 4B 03 EB C9 03 ...  returns 0x100 (0000ms, 13614ms total)
T0374 3019:642 JLINK_WriteMem(0x00404C00, 0x0100 Bytes, ...) -- Data:  DA F8 44 10 52 00 01 31 CA F8 44 10 F4 E7 00 BF ...  returns 0x100 (0000ms, 13614ms total)
T0374 3019:642 JLINK_WriteMem(0x00404D00, 0x0100 Bytes, ...) -- Data:  01 37 FD F7 85 FA 64 10 08 35 F4 E7 CD E9 04 01 ...  returns 0x100 (0000ms, 13614ms total)
T0374 3019:642 JLINK_WriteMem(0x00404E00, 0x0100 Bytes, ...) -- Data:  A1 F9 02 46 0B 46 30 46 39 46 FD F7 4D F8 DD F8 ...  returns 0x100 (0000ms, 13614ms total)
T0374 3019:642 JLINK_WriteMem(0x00404F00, 0x0100 Bytes, ...) -- Data:  0B 46 30 46 39 46 02 F0 39 FF 68 B1 A0 46 18 F8 ...  returns 0x100 (0000ms, 13614ms total)
T0374 3019:642 JLINK_WriteMem(0x00405000, 0x0100 Bytes, ...) -- Data:  09 9F 9F 42 F6 D1 30 22 09 F1 01 09 3A 70 1A 78 ...  returns 0x100 (0000ms, 13614ms total)
T0374 3019:642 JLINK_WriteMem(0x00405100, 0x0100 Bytes, ...) -- Data:  B0 8C 40 00 00 00 14 40 0E 9A 50 46 59 46 01 F0 ...  returns 0x100 (0000ms, 13614ms total)
T0374 3019:642 JLINK_WriteMem(0x00405200, 0x0100 Bytes, ...) -- Data:  50 46 00 23 01 F0 35 F9 0B 9A 04 46 07 92 01 E0 ...  returns 0x100 (0000ms, 13614ms total)
T0374 3019:642 JLINK_WriteMem(0x00405300, 0x0100 Bytes, ...) -- Data:  CD F8 08 C0 01 F0 AC F8 03 9B DD F8 08 C0 63 B9 ...  returns 0x100 (0000ms, 13614ms total)
T0374 3019:642 JLINK_WriteMem(0x00405400, 0x0100 Bytes, ...) -- Data:  07 9F 01 36 BE 42 07 DB 09 9E 01 2F AC BF F6 19 ...  returns 0x100 (0000ms, 13614ms total)
T0374 3019:642 JLINK_WriteMem(0x00405500, 0x0100 Bytes, ...) -- Data:  80 52 00 23 92 B2 2F 68 2B 60 0A B1 22 6D 10 E0 ...  returns 0x100 (0000ms, 13614ms total)
T0374 3019:642 JLINK_WriteMem(0x00405600, 0x0100 Bytes, ...) -- Data:  0C 00 28 B1 28 46 21 46 BD E8 38 40 FF F7 64 BF ...  returns 0x100 (0000ms, 13614ms total)
T0374 3019:642 JLINK_WriteMem(0x00405700, 0x0100 Bytes, ...) -- Data:  5C 00 21 46 08 22 FD F7 FF FA ED 61 C5 F8 20 A0 ...  returns 0x100 (0000ms, 13614ms total)
T0374 3019:642 JLINK_WriteMem(0x00405800, 0x0100 Bytes, ...) -- Data:  02 4B 03 49 18 68 00 F0 D9 BA 00 BF E8 00 00 20 ...  returns 0x100 (0000ms, 13614ms total)
T0374 3019:642 JLINK_WriteMem(0x00405900, 0x0100 Bytes, ...) -- Data:  20 46 FF F7 BD FE 20 46 31 46 2A 46 BD E8 70 40 ...  returns 0x100 (0000ms, 13614ms total)
T0374 3019:642 JLINK_WriteMem(0x00405A00, 0x0100 Bytes, ...) -- Data:  45 4B 1B 68 9A 42 04 D3 44 4B 30 46 19 68 FF F7 ...  returns 0x100 (0000ms, 13614ms total)
T0374 3019:642 JLINK_WriteMem(0x00405B00, 0x0100 Bytes, ...) -- Data:  03 00 82 42 F7 D3 CD 68 DD 60 99 60 AB 60 CB 60 ...  returns 0x100 (0001ms, 13615ms total)
T0374 3019:643 JLINK_WriteMem(0x00405C00, 0x0100 Bytes, ...) -- Data:  01 9A 21 69 00 F0 E0 FB A2 89 22 F4 90 62 42 F0 ...  returns 0x100 (0000ms, 13615ms total)
T0374 3019:643 JLINK_WriteMem(0x00405D00, 0x0100 Bytes, ...) -- Data:  6C FB 23 68 40 46 2B 44 23 60 21 46 FF F7 6F FC ...  returns 0x100 (0000ms, 13615ms total)
T0374 3019:643 JLINK_WriteMem(0x00405E00, 0x0100 Bytes, ...) -- Data:  00 26 94 B1 A5 68 67 68 01 3F 0C D4 AB 89 01 2B ...  returns 0x100 (0000ms, 13615ms total)
T0374 3019:643 JLINK_WriteMem(0x00405F00, 0x0100 Bytes, ...) -- Data:  0A D1 A2 6A 1B 49 8A 42 06 D1 43 F4 80 63 4F F4 ...  returns 0x100 (0000ms, 13615ms total)
